!File created by NanoVNA-F
# Hz S RI R 50
   1000000 -0.037959  0.130750
   1163333 -0.034455  0.108344
   1326667 -0.032623  0.090101
   1490000 -0.031901  0.075480
   1653333 -0.031924  0.063327
   1816667 -0.032502  0.053612
   1980000 -0.032916  0.045682
   2143333 -0.032592  0.038441
   2306667 -0.032672  0.031648
   2470000 -0.033798  0.025163
   2633333 -0.034243  0.020373
   2796667 -0.034310  0.016806
   2960000 -0.033958  0.011466
   3123333 -0.033692  0.007624
   3286667 -0.032948  0.003055
   3450000 -0.032670 -0.001689
   3613333 -0.032722 -0.006100
   3776667 -0.032941 -0.010713
   3940000 -0.033394 -0.014994
   4103333 -0.034016 -0.019203
   4266667 -0.034740 -0.023197
   4430000 -0.035625 -0.027191
   4593333 -0.036706 -0.030938
   4756667 -0.037883 -0.034479
   4920000 -0.039119 -0.037875
   5083333 -0.040374 -0.041137
   5246667 -0.041687 -0.044295
   5410000 -0.043104 -0.047354
   5573333 -0.044605 -0.050253
   5736667 -0.046108 -0.053018
   5900000 -0.047643 -0.055704
   6063333 -0.049184 -0.058271
   6226667 -0.050742 -0.060758
   6390000 -0.052315 -0.063139
   6553333 -0.053865 -0.065471
   6716667 -0.055388 -0.067751
   6880000 -0.057062 -0.070020
   7043333 -0.058820 -0.072178
   7206667 -0.060625 -0.074182
   7370000 -0.062300 -0.076093
   7533333 -0.064068 -0.077999
   7696667 -0.065891 -0.079688
   7860000 -0.067518 -0.081417
   8023333 -0.069215 -0.083079
   8186667 -0.070951 -0.084631
   8350000 -0.072665 -0.086232
   8513333 -0.074375 -0.087710
   8676667 -0.076024 -0.089080
   8840000 -0.077676 -0.090519
   9003333 -0.079353 -0.091913
   9166667 -0.081014 -0.093237
   9330000 -0.082682 -0.094564
   9493333 -0.084347 -0.095800
   9656667 -0.086000 -0.097017
   9820000 -0.087710 -0.098201
   9983333 -0.089383 -0.099291
  10146667 -0.090933 -0.100320
  10310000 -0.092485 -0.101406
  10473333 -0.094034 -0.102472
  10636667 -0.095600 -0.103621
  10800000 -0.097251 -0.104595
  10963333 -0.098827 -0.105608
  11126667 -0.100414 -0.106600
  11290000 -0.102028 -0.107605
  11453333 -0.103618 -0.108577
  11616667 -0.105235 -0.109504
  11780000 -0.106872 -0.110454
  11943333 -0.108477 -0.111337
  12106667 -0.110188 -0.112329
  12270000 -0.111931 -0.113205
  12433333 -0.113737 -0.114048
  12596667 -0.115545 -0.114776
  12760000 -0.117322 -0.115438
  12923333 -0.119236 -0.116026
  13086667 -0.121161 -0.116409
  13250000 -0.122926 -0.116556
  13413333 -0.124410 -0.116606
  13576667 -0.125635 -0.116637
  13740000 -0.126639 -0.116910
  13903333 -0.127642 -0.117323
  14066667 -0.128603 -0.117891
  14230000 -0.129716 -0.118681
  14393333 -0.130889 -0.119489
  14556667 -0.132172 -0.120357
  14720000 -0.133620 -0.121188
  14883333 -0.135014 -0.121860
  15046667 -0.136378 -0.122652
  15210000 -0.137844 -0.123462
  15373333 -0.139380 -0.124210
  15536667 -0.140923 -0.124884
  15700000 -0.142498 -0.125562
  15863333 -0.144116 -0.126246
  16026667 -0.145739 -0.126863
  16190000 -0.147350 -0.127387
  16353333 -0.148991 -0.127965
  16516667 -0.150663 -0.128482
  16680000 -0.152332 -0.128962
  16843333 -0.154019 -0.129378
  17006667 -0.155693 -0.129802
  17170000 -0.157344 -0.130159
  17333333 -0.159044 -0.130579
  17496667 -0.160698 -0.130954
  17660000 -0.162418 -0.131325
  17823333 -0.164037 -0.131653
  17986667 -0.165774 -0.132016
  18150000 -0.167503 -0.132302
  18313333 -0.169238 -0.132614
  18476667 -0.170931 -0.132866
  18640000 -0.172725 -0.133126
  18803333 -0.174524 -0.133374
  18966667 -0.176301 -0.133537
  19130000 -0.178077 -0.133706
  19293333 -0.179838 -0.133845
  19456667 -0.181661 -0.133955
  19620000 -0.183487 -0.134039
  19783333 -0.185343 -0.134077
  19946667 -0.187164 -0.134173
  20110000 -0.189056 -0.134232
  20273333 -0.190979 -0.134207
  20436667 -0.192941 -0.134143
  20600000 -0.194853 -0.134011
  20763333 -0.196797 -0.133843
  20926667 -0.198688 -0.133633
  21090000 -0.200635 -0.133339
  21253333 -0.202570 -0.133074
  21416667 -0.204485 -0.132680
  21580000 -0.206416 -0.132266
  21743333 -0.208328 -0.131831
  21906667 -0.210209 -0.131320
  22070000 -0.212130 -0.130740
  22233333 -0.213942 -0.130125
  22396667 -0.215816 -0.129512
  22560000 -0.217605 -0.128840
  22723333 -0.219207 -0.128250
  22886667 -0.220997 -0.127526
  23050000 -0.222742 -0.126735
  23213333 -0.224473 -0.125964
  23376667 -0.226219 -0.125127
  23540000 -0.227896 -0.124260
  23703333 -0.229535 -0.123362
  23866667 -0.231184 -0.122493
  24030000 -0.232798 -0.121576
  24193333 -0.234374 -0.120593
  24356667 -0.235990 -0.119646
  24520000 -0.237549 -0.118650
  24683333 -0.239105 -0.117625
  24846667 -0.240625 -0.116571
  25010000 -0.242145 -0.115509
  25173333 -0.243645 -0.114372
  25336667 -0.245058 -0.113248
  25500000 -0.246549 -0.112089
  25663333 -0.247957 -0.110890
  25826667 -0.249356 -0.109680
  25990000 -0.250736 -0.108478
  26153333 -0.252058 -0.107227
  26316667 -0.253380 -0.105941
  26480000 -0.254672 -0.104655
  26643333 -0.255884 -0.103298
  26806667 -0.257105 -0.101981
  26970000 -0.258244 -0.100564
  27133333 -0.259362 -0.099150
  27296667 -0.260414 -0.097755
  27460000 -0.261415 -0.096331
  27623333 -0.262386 -0.094958
  27786667 -0.263302 -0.093577
  27950000 -0.264265 -0.092207
  28113333 -0.265176 -0.090777
  28276667 -0.266033 -0.089333
  28440000 -0.266882 -0.087903
  28603333 -0.267703 -0.086462
  28766667 -0.268455 -0.085005
  28930000 -0.269178 -0.083522
  29093333 -0.269853 -0.082070
  29256667 -0.270555 -0.080637
  29420000 -0.271159 -0.079153
  29583333 -0.271770 -0.077671
  29746667 -0.272327 -0.076184
  29910000 -0.272846 -0.074712
  30073333 -0.273319 -0.073195
  30236667 -0.273823 -0.071693
  30400000 -0.274214 -0.070256
  30563333 -0.274674 -0.068766
  30726667 -0.275038 -0.067246
  30890000 -0.275360 -0.065713
  31053333 -0.275704 -0.064250
  31216667 -0.275965 -0.062786
  31380000 -0.276235 -0.061314
  31543333 -0.276510 -0.059833
  31706667 -0.276742 -0.058321
  31870000 -0.276935 -0.056849
  32033333 -0.277106 -0.055358
  32196667 -0.277262 -0.053881
  32360000 -0.277334 -0.052364
  32523333 -0.277396 -0.050897
  32686667 -0.277467 -0.049428
  32850000 -0.277433 -0.047947
  33013333 -0.277376 -0.046466
  33176667 -0.277266 -0.044963
  33340000 -0.277145 -0.043497
  33503333 -0.276949 -0.041981
  33666667 -0.276670 -0.040494
  33830000 -0.276332 -0.039040
  33993333 -0.275920 -0.037568
  34156667 -0.275463 -0.036148
  34320000 -0.274906 -0.034774
  34483333 -0.274294 -0.033485
  34646667 -0.273657 -0.032229
  34810000 -0.272974 -0.031082
  34973333 -0.272252 -0.029992
  35136667 -0.271530 -0.029009
  35300000 -0.270776 -0.028107
  35463333 -0.270055 -0.027311
  35626667 -0.269383 -0.026533
  35790000 -0.268707 -0.025844
  35953333 -0.268125 -0.025181
  36116667 -0.267535 -0.024581
  36280000 -0.266962 -0.023981
  36443333 -0.266474 -0.023454
  36606667 -0.265999 -0.022926
  36770000 -0.265522 -0.022406
  36933333 -0.265136 -0.021905
  37096667 -0.264697 -0.021373
  37260000 -0.264307 -0.020926
  37423333 -0.263926 -0.020435
  37586667 -0.263626 -0.019905
  37750000 -0.263293 -0.019426
  37913333 -0.262977 -0.018978
  38076667 -0.262661 -0.018479
  38240000 -0.262357 -0.017985
  38403333 -0.262038 -0.017534
  38566667 -0.261693 -0.017150
  38730000 -0.261393 -0.016718
  38893333 -0.261110 -0.016354
  39056667 -0.260784 -0.015932
  39220000 -0.260524 -0.015513
  39383333 -0.260255 -0.015149
  39546667 -0.260017 -0.014725
  39710000 -0.259730 -0.014353
  39873333 -0.259478 -0.013973
  40036667 -0.259208 -0.013615
  40200000 -0.258966 -0.013268
  40363333 -0.258698 -0.012887
  40526667 -0.258469 -0.012526
  40690000 -0.258225 -0.012181
  40853333 -0.257989 -0.011837
  41016667 -0.257730 -0.011482
  41180000 -0.257524 -0.011199
  41343333 -0.257289 -0.010816
  41506667 -0.257105 -0.010504
  41670000 -0.256885 -0.010176
  41833333 -0.256654 -0.009860
  41996667 -0.256461 -0.009520
  42160000 -0.256272 -0.009222
  42323333 -0.256079 -0.008891
  42486667 -0.255907 -0.008604
  42650000 -0.255709 -0.008272
  42813333 -0.255555 -0.007949
  42976667 -0.255361 -0.007669
  43140000 -0.255203 -0.007394
  43303333 -0.255028 -0.007092
  43466667 -0.254885 -0.006748
  43630000 -0.254749 -0.006457
  43793333 -0.254559 -0.006177
  43956667 -0.254441 -0.005896
  44120000 -0.254308 -0.005581
  44283333 -0.254206 -0.005298
  44446667 -0.254047 -0.005027
  44610000 -0.253936 -0.004700
  44773333 -0.253824 -0.004417
  44936667 -0.253725 -0.004160
  45100000 -0.253606 -0.003856
  45263333 -0.253479 -0.003580
  45426667 -0.253369 -0.003304
  45590000 -0.253249 -0.003048
  45753333 -0.253146 -0.002762
  45916667 -0.253029 -0.002488
  46080000 -0.252875 -0.002205
  46243333 -0.252769 -0.001959
  46406667 -0.252676 -0.001659
  46570000 -0.252624 -0.001351
  46733333 -0.252497 -0.001089
  46896667 -0.252413 -0.000803
  47060000 -0.252384 -0.000458
  47223333 -0.252314 -0.000172
  47386667 -0.252272  0.000132
  47550000 -0.252182  0.000426
  47713333 -0.252170  0.000731
  47876667 -0.252111  0.001004
  48040000 -0.252050  0.001313
  48203333 -0.252027  0.001597
  48366667 -0.251919  0.001913
  48530000 -0.251882  0.002210
  48693333 -0.251877  0.002498
  48856667 -0.251791  0.002783
  49020000 -0.251743  0.003106
  49183333 -0.251704  0.003396
  49346667 -0.251647  0.003686
  49510000 -0.251608  0.004006
  49673333 -0.251602  0.004288
  49836667 -0.251547  0.004638
  50000000 -0.251509  0.004927
